
**** 05/26/17 08:59:16 ****** PSpice Lite (October 2012) ****** ID# 10813 ****

 ** Profile: "SCHEMATIC1-cl_gain"  [ C:\USERS\SHANE REYNOLDS\DOCUMENTS\ENG471_ANALOGDEVICES\lab_3\lab_3-PSpiceFiles\SCHEMATIC1\cl_gai


 ****     CIRCUIT DESCRIPTION


******************************************************************************




** Creating circuit file "cl_gain.cir" 
** WARNING: THIS AUTOMATICALLY GENERATED FILE MAY BE OVERWRITTEN BY SUBSEQUENT SIMULATIONS

*Libraries: 
* Profile Libraries :
* Local Libraries :
* From [PSPICE NETLIST] section of C:\Users\Shane Reynolds\AppData\Roaming\SPB_Data\cdssetup\OrCAD_PSpice/16.6.0/PSpice.ini file:
.lib "nomd.lib" 

*Analysis directives: 
.AC DEC 10 10 100000000
.OPTIONS ADVCONV
.PROBE64 V(alias(*)) I(alias(*)) W(alias(*)) D(alias(*)) NOISE(alias(*)) 
.INC "..\SCHEMATIC1.net" 



**** INCLUDING SCHEMATIC1.net ****
* source LAB_3
Q_Q1         N00263 N00267 N00259 Q2N2222
Q_Q2         N00251 N00263 N00255 Q2N2222
C_CE         0 N00259  100n  TC=0,0 
C_CC         N00267 N00387  100n  TC=0,0 
C_CF         N00255 N00479  100n  TC=0,0 
R_RF         N00267 N00479  1.2k TC=0,0 
R_RE2         0 N00255  8.1k TC=0,0 
R_RE1         0 N00259  1k TC=0,0 
R_R2         0 N00267  13.5k TC=0,0 
R_R1         N00267 N00423  38.3k TC=0,0 
R_RC1         N00263 N00423  3k TC=0,0 
R_RC2         N00251 N00423  4k TC=0,0 
R_RS         IN N00387  0.6k TC=0,0 
V_V2         N00423 0 10Vdc
V_V3         IN 0 DC 0Vdc AC 1Vac 

**** RESUMING cl_gain.cir ****
.END

**** 05/26/17 08:59:16 ****** PSpice Lite (October 2012) ****** ID# 10813 ****

 ** Profile: "SCHEMATIC1-cl_gain"  [ C:\USERS\SHANE REYNOLDS\DOCUMENTS\ENG471_ANALOGDEVICES\lab_3\lab_3-PSpiceFiles\SCHEMATIC1\cl_gai


 ****     BJT MODEL PARAMETERS


******************************************************************************




               Q2N2222         
               NPN             
       LEVEL    1            
          IS   14.340000E-15 
          BF  255.9          
          NF    1            
         VAF   74.03         
         IKF     .2847       
         ISE   14.340000E-15 
          NE    1.307        
          BR    6.092        
          NR    1            
         ISS    0            
          RB   10            
          RE    0            
          RC    1            
         CJE   22.010000E-12 
         VJE     .75         
         MJE     .377        
         CJC    7.306000E-12 
         VJC     .75         
         MJC     .3416       
        XCJC    1            
         CJS    0            
         VJS     .75         
          TF  411.100000E-12 
         XTF    3            
         VTF    1.7          
         ITF     .6          
          TR   46.910000E-09 
         XTB    1.5          
          KF    0            
          AF    1            
          CN    2.42         
           D     .87         


**** 05/26/17 08:59:16 ****** PSpice Lite (October 2012) ****** ID# 10813 ****

 ** Profile: "SCHEMATIC1-cl_gain"  [ C:\USERS\SHANE REYNOLDS\DOCUMENTS\ENG471_ANALOGDEVICES\lab_3\lab_3-PSpiceFiles\SCHEMATIC1\cl_gai


 ****     SMALL SIGNAL BIAS SOLUTION       TEMPERATURE =   27.000 DEG C


******************************************************************************



 NODE   VOLTAGE     NODE   VOLTAGE     NODE   VOLTAGE     NODE   VOLTAGE


(   IN)    0.0000  (N00251)    8.0858 (N00255)    3.9034 (N00259)    1.8317     

(N00263)    4.5290 (N00267)    2.4926 (N00387)    0.0000 (N00423)   10.0000     

(N00479)    2.4926 




    VOLTAGE SOURCE CURRENTS
    NAME         CURRENT

    V_V2        -2.498E-03
    V_V3         0.000E+00

    TOTAL POWER DISSIPATION   2.50E-02  WATTS



          JOB CONCLUDED

**** 05/26/17 08:59:16 ****** PSpice Lite (October 2012) ****** ID# 10813 ****

 ** Profile: "SCHEMATIC1-cl_gain"  [ C:\USERS\SHANE REYNOLDS\DOCUMENTS\ENG471_ANALOGDEVICES\lab_3\lab_3-PSpiceFiles\SCHEMATIC1\cl_gai


 ****     JOB STATISTICS SUMMARY


******************************************************************************



  Total job time (using Solver 1)   =         .06
