
**** 05/10/16 21:03:46 ****** PSpice Lite (October 2012) ****** ID# 10813 ****

 ** Profile: "SCHEMATIC1-frequency_sweep"  [ C:\USERS\SHANE REYNOLDS\GOOGLE DRIVE\OrCAD\ENG471 - Assignment 1\ENG471 - Assignment 1-P


 ****     CIRCUIT DESCRIPTION


******************************************************************************




** Creating circuit file "frequency_sweep.cir" 
** WARNING: THIS AUTOMATICALLY GENERATED FILE MAY BE OVERWRITTEN BY SUBSEQUENT SIMULATIONS

*Libraries: 
* Profile Libraries :
* Local Libraries :
.LIB "../../../eng471 - assignment 1-pspicefiles/eng471 - assignment 1.lib" 
* From [PSPICE NETLIST] section of C:\Users\Shane Reynolds\AppData\Roaming\SPB_Data\cdssetup\OrCAD_PSpice/16.6.0/PSpice.ini file:
.lib "nomd.lib" 

*Analysis directives: 
.AC DEC 100 10 1e5
.OPTIONS ADVCONV
.PROBE64 V(alias(*)) I(alias(*)) W(alias(*)) D(alias(*)) NOISE(alias(*)) 
.INC "..\SCHEMATIC1.net" 



**** INCLUDING SCHEMATIC1.net ****
* source ENG471 - ASSIGNMENT 1
M_M1         N00233 N00245 N00237 N00237 Mbreakn           
R_RD         N00233 N00339  7k TC=0,0 
R_RS         N00565 N00237  10k TC=0,0 
R_R3         0 N00245  145.5k TC=0,0 
R_R1         N00299 N00339  179.5k TC=0,0 
R_Ri         N00264 VIN  2k TC=0,0 
R_RL         0 VOUT  10k TC=0,0 
C_CC2         N00233 VOUT  10u  TC=0,0 
C_CG         0 N00299  100n  TC=0,0 
C_CC1         N00245 N00264  100n  TC=0,0 
C_CS         N00237 0  10u  TC=0,0 
R_R2         N00245 N00299  175k TC=0,0 
V_Vin         VIN 0 DC 0Vdc AC 1Vac 
V_V2         N00565 0 -10Vdc
V_V3         N00339 0 10Vdc

**** RESUMING frequency_sweep.cir ****
.END

**** 05/10/16 21:03:46 ****** PSpice Lite (October 2012) ****** ID# 10813 ****

 ** Profile: "SCHEMATIC1-frequency_sweep"  [ C:\USERS\SHANE REYNOLDS\GOOGLE DRIVE\OrCAD\ENG471 - Assignment 1\ENG471 - Assignment 1-P


 ****     MOSFET MODEL PARAMETERS


******************************************************************************




               Mbreakn         
               NMOS            
       LEVEL    1            
           L    1            
           W    1            
         VTO    2            
          KP    2.400000E-03 
       GAMMA    0            
         PHI     .6          
      LAMBDA    0            
          IS   10.000000E-15 
          JS    0            
          PB     .8          
        PBSW     .8          
          CJ    0            
        CJSW    0            
        CGSO    0            
        CGDO    0            
        CGBO    0            
         TOX    0            
          XJ    0            
       UCRIT   10.000000E+03 
      DIOMOD    1            
         VFB    0            
        LETA    0            
        WETA    0            
          U0    0            
        TEMP    0            
         VDD    5            
       XPART    0            


**** 05/10/16 21:03:46 ****** PSpice Lite (October 2012) ****** ID# 10813 ****

 ** Profile: "SCHEMATIC1-frequency_sweep"  [ C:\USERS\SHANE REYNOLDS\GOOGLE DRIVE\OrCAD\ENG471 - Assignment 1\ENG471 - Assignment 1-P


 ****     SMALL SIGNAL BIAS SOLUTION       TEMPERATURE =   27.000 DEG C


******************************************************************************



 NODE   VOLTAGE     NODE   VOLTAGE     NODE   VOLTAGE     NODE   VOLTAGE


(  VIN)    0.0000  ( VOUT)    0.0000  (N00233)    3.0019 (N00237)    -.0027     

(N00245)    2.9100 (N00264)    0.0000 (N00299)    6.4100 (N00339)   10.0000     

(N00565)  -10.0000 




    VOLTAGE SOURCE CURRENTS
    NAME         CURRENT

    V_Vin        0.000E+00
    V_V2         9.997E-04
    V_V3        -1.020E-03

    TOTAL POWER DISSIPATION   2.02E-02  WATTS



          JOB CONCLUDED

**** 05/10/16 21:03:46 ****** PSpice Lite (October 2012) ****** ID# 10813 ****

 ** Profile: "SCHEMATIC1-frequency_sweep"  [ C:\USERS\SHANE REYNOLDS\GOOGLE DRIVE\OrCAD\ENG471 - Assignment 1\ENG471 - Assignment 1-P


 ****     JOB STATISTICS SUMMARY


******************************************************************************



  Total job time (using Solver 1)   =         .03
